
T13E4 000:035 SEGGER J-Link V4.62 Log File (0001ms, 0036ms total)
T13E4 000:035 DLL Compiled: Jan 25 2013 15:19:47 (0001ms, 0036ms total)
T13E4 000:035 Logging started @ 2015-08-10 15:41 (0001ms, 0036ms total)
T13E4 000:036 JLINK_SetWarnOutHandler(...) (0000ms, 0036ms total)
T13E4 000:036 JLINK_OpenEx(...)
Firmware: J-Link ARM V8 compiled Nov 28 2014 13:44:46
Hardware: V8.00
S/N: 17935099
Feature(s): RDI,FlashDL,FlashBP,JFlash  returns O.K. (0017ms, 0053ms total)
T13E4 000:053 JLINK_SetErrorOutHandler(...) (0000ms, 0053ms total)
T13E4 000:053 JLINK_ExecCommand("ProjectFile = "C:\Users\lijiaming\Desktop\stm32l\text1_link1\JLinkSettings.ini"", ...)  returns 0x00 (0001ms, 0054ms total)
T13E4 000:054 JLINK_ExecCommand("Device = STM32L151RB", ...)
                JLINK_ExecCommand("map ram 0x20000000 - 0x20003FFF", ...)  returns 0x00 (0000ms, 0001ms total)
                JLINK_AddMirrorAreaEx(Addr = 0x00000000, Size = 0x00000000) (0000ms, 0001ms total)
              Device "STM32L151RB" selected (132 KB flash, 16 KB RAM).  returns 0x00 (0001ms, 0055ms total)
T13E4 000:055 JLINK_ExecCommand("DisableConnectionTimeout", ...)  returns 0x00 (0000ms, 0055ms total)
T13E4 000:055 JLINK_TIF_Select(JLINKARM_TIF_SWD)  returns 0x00 (0002ms, 0057ms total)
T13E4 000:057 JLINK_SetSpeed(10000) (0000ms, 0057ms total)
T13E4 000:057 JLINK_GetHardwareVersion()  returns 0x13880 (0000ms, 0057ms total)
T13E4 000:057 JLINK_GetDLLVersion()  returns 46200 (0000ms, 0057ms total)
T13E4 000:057 JLINK_GetFirmwareString(...) (0000ms, 0057ms total)
T13E4 000:060 JLINK_GetDLLVersion()  returns 46200 (0000ms, 0057ms total)
T13E4 000:060 JLINK_GetCompileDateTime() (0000ms, 0057ms total)
T13E4 000:061 JLINK_GetFirmwareString(...) (0000ms, 0057ms total)
T13E4 000:061 JLINK_GetHardwareVersion()  returns 0x13880 (0000ms, 0057ms total)
T13E4 000:062 JLINK_GetId() >0x108 TIF>Found SWD-DP with ID 0x2BA01477 >0x0D TIF> >0x21 TIF> >0x0D TIF> >0x28 TIF> >0x0D TIF> >0x28 TIF> >0x0D TIF> >0x21 TIF> >0x0D TIF> >0x21 TIF> >0x0D TIF> >0x28 TIF> >0x0D TIF> >0x21 TIF> >0x0D TIF> >0x21 TIF> >0x0D TIF> >0x21 TIF> >0x0D TIF> >0x21 TIF> >0x0D TIF> >0x21 TIF> >0x0D TIF> >0x28 TIF> >0x0D TIF> >0x28 TIF> >0x0D TIF> >0x21 TIF> >0x0D TIF> >0x21 TIF> >0x0D TIF> >0x28 TIF> >0x0D TIF> >0x21 TIF> >0x0D TIF> >0x21 TIF> >0x0D TIF> >0x28 TIF> >0x0D TIF>
 >0x28 TIF> >0x0D TIF> >0x28 TIF> >0x0D TIF> >0x21 TIF> >0x0D TIF> >0x21 TIF> >0x0D TIF> >0x28 TIF> >0x0D TIF> >0x28 TIF> >0x0D TIF> >0x28 TIF> >0x0D TIF> >0x21 TIF> >0x0D TIF> >0x21 TIF> >0x0D TIF> >0x21 TIF>TPIU fitted.ETM fitted. >0x0D TIF> >0x28 TIF> >0x0D TIF> >0x21 TIF> >0x0D TIF> >0x21 TIF> >0x0D TIF> >0x28 TIF> >0x0D TIF> >0x21 TIF> >0x0D TIF> >0x21 TIF>FPUnit: 6 code (BP) slots and 2 literal slots >0x0D TIF> >0x28 TIF> >0x0D TIF> >0x21 TIF> >0x0D TIF> >0x21 TIF> >0x0D TIF> >0x28 TIF> >0x0D TIF>
 >0x21 TIF> >0x0D TIF> >0x21 TIF> >0x0D TIF> >0x28 TIF> >0x0D TIF> >0x21 TIF> >0x0D TIF> >0x21 TIF> >0x0D TIF> >0x28 TIF> >0x0D TIF> >0x21 TIF> >0x0D TIF> >0x21 TIF>Found Cortex-M3 r2p0, Little endian. >0x0D TIF> >0x21 TIF>  returns 0x2BA01477 (0048ms, 0105ms total)
T13E4 000:110 JLINK_GetDeviceFamily()  returns 3 (0000ms, 0105ms total)
T13E4 000:111 JLINK_ReadMem (0xE00FFFF0, 0x0010 Bytes, ...) -- CPU is running -- CPU_ReadMem(16 bytes @ 0xE00FFFF0) -- Data:  0D 00 00 00 10 00 00 00 05 00 00 00 B1 00 00 00  returns 0x00 (0001ms, 0106ms total)
T13E4 000:112 JLINK_ReadMem (0xE00FFFD0, 0x0020 Bytes, ...) -- CPU is running -- CPU_ReadMem(32 bytes @ 0xE00FFFD0) -- Data:  00 00 00 00 00 00 00 00 00 00 00 00 00 00 00 00 ...  returns 0x00 (0001ms, 0107ms total)
T13E4 000:113 JLINK_ReadMem (0xE00FF000, 0x0018 Bytes, ...) -- CPU is running -- CPU_ReadMem(24 bytes @ 0xE00FF000) -- Data:  03 F0 F0 FF 03 20 F0 FF 03 30 F0 FF 03 10 F0 FF ...  returns 0x00 (0001ms, 0108ms total)
T13E4 000:114 JLINK_ReadMemU32(0xE000ED00, 0x0001 Items, ...) -- CPU is running -- CPU_ReadMem(4 bytes @ 0xE000ED00) -- Data:  30 C2 2F 41  returns 0x01 (0001ms, 0109ms total)
T13E4 000:115 JLINK_SetResetType(JLINKARM_RESET_TYPE_NORMAL)  returns JLINKARM_RESET_TYPE_NORMAL (0000ms, 0109ms total)
T13E4 000:115 JLINK_Reset() -- CPU is running -- CPU_WriteMem(4 bytes @ 0xE000EDF0) -- CPU is running -- CPU_WriteMem(4 bytes @ 0xE000EDFC) >0x35 TIF> -- CPU is running -- CPU_WriteMem(4 bytes @ 0xE000ED0C) -- CPU is running -- CPU_ReadMem(4 bytes @ 0xE000EDF0) -- CPU is running -- CPU_ReadMem(4 bytes @ 0xE000EDF0) -- CPU is running -- CPU_WriteMem(4 bytes @ 0xE000EDF0) -- CPU is running -- CPU_WriteMem(4 bytes @ 0xE000EDFC) -- CPU is running -- CPU_ReadMem(4 bytes @ 0xE000EDF0)
 -- CPU_WriteMem(4 bytes @ 0xE0002000) (0020ms, 0129ms total)
T13E4 000:135 JLINK_ReadReg(R15)  returns 0x08002530 (0000ms, 0129ms total)
T13E4 000:135 JLINK_ReadReg(XPSR)  returns 0x01000000 (0000ms, 0129ms total)
T13E4 000:135 JLINK_Halt()  returns 0x00 (0000ms, 0129ms total)
T13E4 000:135 JLINK_IsHalted()  returns TRUE (0000ms, 0129ms total)
T13E4 000:135 JLINK_ReadMemU32(0xE000EDF0, 0x0001 Items, ...) -- CPU_ReadMem(4 bytes @ 0xE000EDF0) -- Data:  03 00 03 00  returns 0x01 (0001ms, 0130ms total)
T13E4 000:136 JLINK_WriteU32(0xE000EDF0, 0xA05F0003) -- CPU_WriteMem(4 bytes @ 0xE000EDF0)  returns 0x00 (0001ms, 0131ms total)
T13E4 000:137 JLINK_WriteU32(0xE000EDFC, 0x01000000) -- CPU_WriteMem(4 bytes @ 0xE000EDFC)  returns 0x00 (0001ms, 0132ms total)
T13E4 000:138 JLINK_GetHWStatus(...)  returns 0x00 (0001ms, 0133ms total)
T13E4 000:139 JLINK_GetNumBPUnits(Type = 0xFFFFFF00)  returns 0x06 (0000ms, 0133ms total)
T13E4 000:139 JLINK_GetNumBPUnits(Type = 0xF0)  returns 0x2000 (0000ms, 0133ms total)
T13E4 000:139 JLINK_GetNumWPUnits()  returns 0x04 (0000ms, 0133ms total)
T13E4 000:139 JLINK_GetSpeed()  returns 0xFA0 (0000ms, 0133ms total)
T13E4 000:139 JLINK_ReadMemU32(0xE000E004, 0x0001 Items, ...) -- CPU_ReadMem(4 bytes @ 0xE000E004) -- Data:  01 00 00 00  returns 0x01 (0001ms, 0134ms total)
T13E4 000:140 JLINK_ReadMemU32(0xE000E004, 0x0001 Items, ...) -- CPU_ReadMem(4 bytes @ 0xE000E004) -- Data:  01 00 00 00  returns 0x01 (0001ms, 0135ms total)
T13E4 000:141 JLINK_WriteMem(0xE0001000, 0x001C Bytes, ...) -- Data:  01 00 00 00 00 00 00 00 00 00 00 00 00 00 00 00 ... -- CPU_WriteMem(28 bytes @ 0xE0001000)  returns 0x1C (0001ms, 0136ms total)
T13E4 000:142 JLINK_ReadMem (0xE0001000, 0x001C Bytes, ...) -- CPU_ReadMem(28 bytes @ 0xE0001000) -- Data:  01 00 00 40 00 00 00 00 00 00 00 00 00 00 00 00 ...  returns 0x00 (0001ms, 0137ms total)
T13E4 000:143 JLINK_ReadReg(R15)  returns 0x08002530 (0000ms, 0137ms total)
T13E4 000:143 JLINK_ReadReg(XPSR)  returns 0x01000000 (0000ms, 0137ms total)
T13E4 000:220 JLINK_ReadMem (0x08000000, 0x1000 Bytes, ...) -- CPU_ReadMem(4096 bytes @ 0x08000000) -- Data:  30 2D 00 20 31 25 00 08 39 25 00 08 3B 25 00 08 ...  returns 0x00 (0028ms, 0165ms total)
T13E4 000:249 JLINK_ReadMem (0x08001000, 0x1000 Bytes, ...) -- CPU_ReadMem(4096 bytes @ 0x08001000) -- Data:  85 FC 07 B0 00 BD 1F B5 4F F4 E1 30 00 90 00 20 ...  returns 0x00 (0029ms, 0194ms total)
T13E4 000:281 JLINK_ReadMem (0x08002000, 0x1000 Bytes, ...) -- CPU_ReadMem(4096 bytes @ 0x08002000) -- Data:  06 F0 24 FF 00 28 F9 D0 10 BD 10 B5 00 20 07 F0 ...  returns 0x00 (0028ms, 0222ms total)
T13E4 000:310 JLINK_ReadMem (0x08003000, 0x1000 Bytes, ...) -- CPU_ReadMem(4096 bytes @ 0x08003000) -- Data:  30 78 42 42 00 E0 3A 78 10 46 BA E7 70 B5 04 46 ...  returns 0x00 (0028ms, 0250ms total)
T13E4 000:339 JLINK_ReadMem (0x08004000, 0x1000 Bytes, ...) -- CPU_ReadMem(4096 bytes @ 0x08004000) -- Data:  7E FE 00 20 20 80 00 BF C0 E7 10 B5 04 46 BF 48 ...  returns 0x00 (0028ms, 0278ms total)
T13E4 000:368 JLINK_ReadMem (0x08005000, 0x1000 Bytes, ...) -- CPU_ReadMem(4096 bytes @ 0x08005000) -- Data:  17 FD 80 46 00 BF 00 BF DE 48 20 60 65 60 31 46 ...  returns 0x00 (0029ms, 0307ms total)
T13E4 000:397 JLINK_ReadMem (0x08006000, 0x1000 Bytes, ...) -- CPU_ReadMem(4096 bytes @ 0x08006000) -- Data:  28 90 C4 F8 2C A0 06 98 20 62 12 98 84 F8 37 00 ...  returns 0x00 (0029ms, 0336ms total)
T13E4 000:427 JLINK_ReadMem (0x08007000, 0x1000 Bytes, ...) -- CPU_ReadMem(4096 bytes @ 0x08007000) -- Data:  92 48 00 68 20 B9 47 F2 12 20 20 80 0A B0 10 BD ...  returns 0x00 (0028ms, 0364ms total)
T13E4 000:456 JLINK_ReadMem (0x08008000, 0x1000 Bytes, ...) -- CPU_ReadMem(4096 bytes @ 0x08008000) -- Data:  21 F4 40 11 53 1E 41 EA 03 51 41 64 10 BD 08 B5 ...  returns 0x00 (0028ms, 0392ms total)
T13E4 000:485 JLINK_ReadMem (0x08009000, 0x1000 Bytes, ...) -- CPU_ReadMem(4096 bytes @ 0x08009000) -- Data:  00 08 E0 78 48 EA 00 48 20 7B FF F7 68 FE 48 EA ...  returns 0x00 (0029ms, 0421ms total)
T13E4 000:515 JLINK_ReadMem (0x0800A000, 0x1000 Bytes, ...) -- CPU_ReadMem(4096 bytes @ 0x0800A000) -- Data:  05 EA 04 24 22 43 4C 88 05 EA 04 24 22 43 4C 68 ...  returns 0x00 (0028ms, 0449ms total)
T13E4 000:544 JLINK_ReadMem (0x0800B000, 0x0D8C Bytes, ...) -- CPU_ReadMem(3468 bytes @ 0x0800B000) -- Data:  41 F4 80 11 43 F4 80 13 AE 44 A1 FB 02 4C A0 FB ...  returns 0x00 (0024ms, 0473ms total)
T13E4 000:624 JLINK_SetResetType(JLINKARM_RESET_TYPE_NORMAL)  returns JLINKARM_RESET_TYPE_NORMAL (0000ms, 0473ms total)
T13E4 000:624 JLINK_Reset() -- CPU_WriteMem(4 bytes @ 0xE000EDF0) -- CPU_WriteMem(4 bytes @ 0xE000EDFC) >0x35 TIF> -- CPU_WriteMem(4 bytes @ 0xE000ED0C) -- CPU_ReadMem(4 bytes @ 0xE000EDF0) -- CPU_ReadMem(4 bytes @ 0xE000EDF0) -- CPU_WriteMem(4 bytes @ 0xE000EDF0) -- CPU_WriteMem(4 bytes @ 0xE000EDFC) -- CPU is running -- CPU_ReadMem(4 bytes @ 0xE000EDF0) -- CPU_WriteMem(4 bytes @ 0xE0002000) (0020ms, 0493ms total)
T13E4 000:645 JLINK_ReadReg(R15)  returns 0x08002530 (0000ms, 0493ms total)
T13E4 000:645 JLINK_ReadReg(XPSR)  returns 0x01000000 (0000ms, 0493ms total)
T13E4 000:645 JLINK_ReadMemU32(0xE0001004, 0x0001 Items, ...) -- CPU_ReadMem(4 bytes @ 0xE0001004) -- Data:  A0 04 00 00  returns 0x01 (0000ms, 0493ms total)
T13E4 000:646 JLINK_ReadMem (0x08002530, 0x003C Bytes, ...) -- CPU_ReadMem(60 bytes @ 0x08002530) -- Data:  09 48 80 47 09 48 00 47 FE E7 FE E7 FE E7 FE E7 ...  returns 0x00 (0002ms, 0495ms total)
T1758 002:377 JLINK_SetBPEx(Addr = 0x080007CC, Type = 0xFFFFFFF2)  returns 0x00000001 (0004ms, 0499ms total)
T1758 002:381 JLINK_SetBPEx(Addr = 0x0800022E, Type = 0xFFFFFFF2)  returns 0x00000002 (0000ms, 0499ms total)
T1758 002:381 JLINK_Go() -- CPU_WriteMem(4 bytes @ 0xE0002008) -- CPU_WriteMem(4 bytes @ 0xE000200C) -- CPU_WriteMem(4 bytes @ 0xE0002010) -- CPU_WriteMem(4 bytes @ 0xE0002014) -- CPU_WriteMem(4 bytes @ 0xE0002018) -- CPU_WriteMem(4 bytes @ 0xE000201C) (0005ms, 0504ms total)
T1758 002:487 JLINK_IsHalted()  returns TRUE (0003ms, 0507ms total)
T1758 002:490 JLINK_Halt()  returns 0x00 (0000ms, 0504ms total)
T1758 002:490 JLINK_IsHalted()  returns TRUE (0000ms, 0504ms total)
T1758 002:490 JLINK_IsHalted()  returns TRUE (0000ms, 0504ms total)
T1758 002:490 JLINK_IsHalted()  returns TRUE (0000ms, 0504ms total)
T1758 002:490 JLINK_ReadReg(R15)  returns 0x080007CC (0000ms, 0504ms total)
T1758 002:490 JLINK_ReadReg(XPSR)  returns 0x21000000 (0000ms, 0504ms total)
T1758 002:490 JLINK_ClrBPEx(BPHandle = 0x00000001)  returns 0x00 (0000ms, 0504ms total)
T1758 002:490 JLINK_ClrBPEx(BPHandle = 0x00000002)  returns 0x00 (0000ms, 0504ms total)
T1758 002:490 JLINK_ReadMemU32(0xE000ED30, 0x0001 Items, ...) -- CPU_ReadMem(4 bytes @ 0xE000ED30) -- Data:  03 00 00 00  returns 0x01 (0001ms, 0505ms total)
T1758 002:491 JLINK_ReadMemU32(0xE0001028, 0x0001 Items, ...) -- CPU_ReadMem(4 bytes @ 0xE0001028) -- Data:  00 00 00 00  returns 0x01 (0001ms, 0506ms total)
T1758 002:492 JLINK_ReadMemU32(0xE0001038, 0x0001 Items, ...) -- CPU_ReadMem(4 bytes @ 0xE0001038) -- Data:  00 02 00 00  returns 0x01 (0000ms, 0506ms total)
T1758 002:492 JLINK_ReadMemU32(0xE0001048, 0x0001 Items, ...) -- CPU_ReadMem(4 bytes @ 0xE0001048) -- Data:  00 00 00 00  returns 0x01 (0001ms, 0507ms total)
T1758 002:493 JLINK_ReadMemU32(0xE0001058, 0x0001 Items, ...) -- CPU_ReadMem(4 bytes @ 0xE0001058) -- Data:  00 00 00 00  returns 0x01 (0001ms, 0508ms total)
T1758 002:494 JLINK_ReadReg(R0)  returns 0x20002730 (0000ms, 0508ms total)
T1758 002:494 JLINK_ReadReg(R1)  returns 0x20002930 (0000ms, 0508ms total)
T1758 002:494 JLINK_ReadReg(R2)  returns 0x20002930 (0000ms, 0508ms total)
T1758 002:494 JLINK_ReadReg(R3)  returns 0x20002930 (0000ms, 0508ms total)
T1758 002:494 JLINK_ReadReg(R4)  returns 0x00000000 (0000ms, 0508ms total)
T1758 002:494 JLINK_ReadReg(R5)  returns 0x200026CC (0000ms, 0508ms total)
T1758 002:494 JLINK_ReadReg(R6)  returns 0x00000000 (0000ms, 0508ms total)
T1758 002:494 JLINK_ReadReg(R7)  returns 0x00000000 (0001ms, 0509ms total)
T1758 002:495 JLINK_ReadReg(R8)  returns 0x00000000 (0000ms, 0509ms total)
T1758 002:495 JLINK_ReadReg(R9)  returns 0x00000000 (0000ms, 0509ms total)
T1758 002:495 JLINK_ReadReg(R10)  returns 0x0800BD24 (0000ms, 0509ms total)
T1758 002:495 JLINK_ReadReg(R11)  returns 0x00000000 (0000ms, 0509ms total)
T1758 002:495 JLINK_ReadReg(R12)  returns 0x2000270C (0000ms, 0509ms total)
T1758 002:495 JLINK_ReadReg(R13)  returns 0x20002D30 (0000ms, 0509ms total)
T1758 002:495 JLINK_ReadReg(R14)  returns 0x080001BF (0000ms, 0509ms total)
T1758 002:495 JLINK_ReadReg(R15)  returns 0x080007CC (0000ms, 0509ms total)
T1758 002:495 JLINK_ReadReg(XPSR)  returns 0x21000000 (0000ms, 0509ms total)
T1758 002:495 JLINK_ReadReg(MSP)  returns 0x20002D30 (0000ms, 0509ms total)
T1758 002:495 JLINK_ReadReg(PSP)  returns 0x00000000 (0000ms, 0509ms total)
T1758 002:495 JLINK_ReadReg(CFBP)  returns 0x00000000 (0000ms, 0509ms total)
T13E4 002:500 JLINK_ReadMemU32(0xE0001004, 0x0001 Items, ...) -- CPU_ReadMem(4 bytes @ 0xE0001004) -- Data:  6C 35 00 00  returns 0x01 (0000ms, 0509ms total)
T13E4 002:503 JLINK_ReadMem (0x080007CC, 0x003C Bytes, ...) -- CPU_ReadMem(128 bytes @ 0x080007C0) -- Updating DA cache (128 bytes @ 0x080007C0) -- Read from DA cache (60 bytes @ 0x080007CC) -- Data:  10 B5 00 F0 60 FC FF F7 A2 FF 00 20 10 BD 38 B5 ...  returns 0x00 (0002ms, 0511ms total)
T13E4 004:521 JLINK_ReadMem (0x0800049C, 0x003C Bytes, ...) -- CPU_ReadMem(128 bytes @ 0x08000480) -- Updating DA cache (128 bytes @ 0x08000480) -- Read from DA cache (60 bytes @ 0x0800049C) -- Data:  30 46 71 1C CE B2 05 21 90 FB F1 F2 01 FB 12 00 ...  returns 0x00 (0002ms, 0513ms total)
T13E4 005:161 JLINK_ReadMem (0x080003F2, 0x0002 Bytes, ...) -- CPU_ReadMem(64 bytes @ 0x080003C0) -- Updating DA cache (64 bytes @ 0x080003C0) -- Read from DA cache (2 bytes @ 0x080003F2) -- Data:  10 A8  returns 0x00 (0001ms, 0514ms total)
T13E4 005:162 JLINK_ReadMem (0x080003F4, 0x003C Bytes, ...) -- CPU_ReadMem(64 bytes @ 0x08000400) -- Updating DA cache (64 bytes @ 0x08000400) -- Read from DA cache (60 bytes @ 0x080003F4) -- Data:  0A F0 BE FB 07 46 39 46 10 A8 00 F0 2D FE 20 21 ...  returns 0x00 (0001ms, 0515ms total)
T13E4 018:405 JLINK_ReadMem (0x08001ED2, 0x0002 Bytes, ...) -- CPU_ReadMem(64 bytes @ 0x08001EC0) -- Updating DA cache (64 bytes @ 0x08001EC0) -- Read from DA cache (2 bytes @ 0x08001ED2) -- Data:  20 22  returns 0x00 (0002ms, 0517ms total)
T13E4 018:407 JLINK_ReadMem (0x08001ED4, 0x003C Bytes, ...) -- CPU_ReadMem(64 bytes @ 0x08001F00) -- Updating DA cache (64 bytes @ 0x08001F00) -- Read from DA cache (60 bytes @ 0x08001ED4) -- Data:  21 46 61 20 FF F7 6F FE 20 78 24 28 05 D1 40 21 ...  returns 0x00 (0001ms, 0518ms total)
T13E4 020:491 JLINK_ReadMem (0x080004D8, 0x003C Bytes, ...) -- CPU_ReadMem(64 bytes @ 0x08000500) -- Updating DA cache (64 bytes @ 0x08000500) -- Read from DA cache (60 bytes @ 0x080004D8) -- Data:  80 61 56 48 07 F0 82 FF 4F F4 00 61 53 48 07 F0 ...  returns 0x00 (0002ms, 0520ms total)
T13E4 024:485 JLINK_ReadMem (0x08000496, 0x0002 Bytes, ...) -- Read from DA cache (2 bytes @ 0x08000496) -- Data:  06 A8  returns 0x00 (0000ms, 0520ms total)
T13E4 024:485 JLINK_ReadMem (0x08000498, 0x003C Bytes, ...) -- Read from DA cache (60 bytes @ 0x08000498) -- Data:  01 F0 C7 FC 30 46 71 1C CE B2 05 21 90 FB F1 F2 ...  returns 0x00 (0000ms, 0520ms total)
T1758 029:271 JLINK_SetBPEx(Addr = 0x0800022E, Type = 0xFFFFFFF2)  returns 0x00000003 (0000ms, 0520ms total)
T1758 029:272 JLINK_SetBPEx(Addr = 0x08000496, Type = 0xFFFFFFF2)  returns 0x00000004 (0000ms, 0520ms total)
T1758 029:272 JLINK_Go() -- CPU_WriteMem(4 bytes @ 0xE0002008) -- CPU_WriteMem(4 bytes @ 0xE000200C) (0002ms, 0522ms total)
T1758 029:375 JLINK_IsHalted()  returns FALSE (0000ms, 0522ms total)
T1758 029:477 JLINK_IsHalted()  returns TRUE (0003ms, 0525ms total)
T1758 029:480 JLINK_Halt()  returns 0x00 (0000ms, 0522ms total)
T1758 029:480 JLINK_IsHalted()  returns TRUE (0000ms, 0522ms total)
T1758 029:480 JLINK_IsHalted()  returns TRUE (0000ms, 0522ms total)
T1758 029:480 JLINK_IsHalted()  returns TRUE (0000ms, 0522ms total)
T1758 029:480 JLINK_ReadReg(R15)  returns 0x0800022E (0000ms, 0522ms total)
T1758 029:480 JLINK_ReadReg(XPSR)  returns 0x41000000 (0000ms, 0522ms total)
T1758 029:480 JLINK_ClrBPEx(BPHandle = 0x00000003)  returns 0x00 (0000ms, 0522ms total)
T1758 029:480 JLINK_ClrBPEx(BPHandle = 0x00000004)  returns 0x00 (0000ms, 0522ms total)
T1758 029:480 JLINK_ReadMemU32(0xE000ED30, 0x0001 Items, ...) -- CPU_ReadMem(4 bytes @ 0xE000ED30) -- Data:  03 00 00 00  returns 0x01 (0000ms, 0522ms total)
T1758 029:480 JLINK_ReadMemU32(0xE0001028, 0x0001 Items, ...) -- CPU_ReadMem(4 bytes @ 0xE0001028) -- Data:  00 00 00 00  returns 0x01 (0001ms, 0523ms total)
T1758 029:481 JLINK_ReadMemU32(0xE0001038, 0x0001 Items, ...) -- CPU_ReadMem(4 bytes @ 0xE0001038) -- Data:  00 02 00 00  returns 0x01 (0001ms, 0524ms total)
T1758 029:482 JLINK_ReadMemU32(0xE0001048, 0x0001 Items, ...) -- CPU_ReadMem(4 bytes @ 0xE0001048) -- Data:  00 00 00 00  returns 0x01 (0000ms, 0524ms total)
T1758 029:482 JLINK_ReadMemU32(0xE0001058, 0x0001 Items, ...) -- CPU_ReadMem(4 bytes @ 0xE0001058) -- Data:  00 00 00 00  returns 0x01 (0001ms, 0525ms total)
T1758 029:483 JLINK_ReadReg(R0)  returns 0x00000000 (0000ms, 0525ms total)
T1758 029:483 JLINK_ReadReg(R1)  returns 0xE000ED04 (0000ms, 0525ms total)
T1758 029:483 JLINK_ReadReg(R2)  returns 0x00000000 (0000ms, 0525ms total)
T1758 029:483 JLINK_ReadReg(R3)  returns 0x00000006 (0001ms, 0526ms total)
T1758 029:484 JLINK_ReadReg(R4)  returns 0x00000000 (0000ms, 0526ms total)
T1758 029:484 JLINK_ReadReg(R5)  returns 0x00000000 (0000ms, 0526ms total)
T1758 029:484 JLINK_ReadReg(R6)  returns 0x00000000 (0000ms, 0526ms total)
T1758 029:484 JLINK_ReadReg(R7)  returns 0x07070707 (0000ms, 0526ms total)
T1758 029:484 JLINK_ReadReg(R8)  returns 0x08080808 (0000ms, 0526ms total)
T1758 029:484 JLINK_ReadReg(R9)  returns 0x09090909 (0000ms, 0526ms total)
T1758 029:484 JLINK_ReadReg(R10)  returns 0x10101010 (0000ms, 0526ms total)
T1758 029:484 JLINK_ReadReg(R11)  returns 0x11111111 (0000ms, 0526ms total)
T1758 029:484 JLINK_ReadReg(R12)  returns 0x12121212 (0000ms, 0526ms total)
T1758 029:484 JLINK_ReadReg(R13)  returns 0x2000096C (0000ms, 0526ms total)
T1758 029:484 JLINK_ReadReg(R14)  returns 0x08003D7F (0000ms, 0526ms total)
T1758 029:484 JLINK_ReadReg(R15)  returns 0x0800022E (0000ms, 0526ms total)
T1758 029:484 JLINK_ReadReg(XPSR)  returns 0x41000000 (0000ms, 0526ms total)
T1758 029:484 JLINK_ReadReg(MSP)  returns 0x20001368 (0000ms, 0526ms total)
T1758 029:484 JLINK_ReadReg(PSP)  returns 0x2000096C (0000ms, 0526ms total)
T1758 029:484 JLINK_ReadReg(CFBP)  returns 0x02000000 (0000ms, 0526ms total)
T13E4 029:485 JLINK_ReadMem (0x200009E0, 0x0004 Bytes, ...) -- CPU_ReadMem(4 bytes @ 0x200009E0) -- Data:  00 00 00 00  returns 0x00 (0001ms, 0527ms total)
T13E4 029:489 JLINK_ReadMem (0x200009D8, 0x0002 Bytes, ...) -- CPU_ReadMem(2 bytes @ 0x200009D8) -- Data:  00 00  returns 0x00 (0000ms, 0527ms total)
T13E4 029:489 JLINK_ReadMem (0x00000000, 0x0004 Bytes, ...)
                JLINK_ReadMemHW(0x00000000, 0x0004 Bytes, ...) -- CPU_ReadMem(4 bytes @ 0x00000000) -- Data:  30 2D 00 20  returns 0x00 (0001ms, 0001ms total)
                JLINK_ReadMemHW(0x08000000, 0x0004 Bytes, ...) -- CPU_ReadMem(4 bytes @ 0x08000000) -- Data:  30 2D 00 20  returns 0x00 (0001ms, 0002ms total)
                JLINK_WriteMemHW(0x00000000, 0x0004 Bytes, ...) -- Data:  01 00 01 00 -- CPU_WriteMem(4 bytes @ 0x00000000)  returns 0x04 (0000ms, 0002ms total)
                JLINK_ReadMemHW(0x00000000, 0x0004 Bytes, ...) -- CPU_ReadMem(4 bytes @ 0x00000000) -- Data:  30 2D 00 20  returns 0x00 (0001ms, 0003ms total)
               -- MA0 is in flash -- Unmirror addr 0x00000000 -- CPU_ReadMem(64 bytes @ 0x08000000) -- Updating DA cache (64 bytes @ 0x08000000) -- Read from DA cache (4 bytes @ 0x08000000) -- Data:  30 2D 00 20  returns 0x00 (0004ms, 0531ms total)
T13E4 029:494 JLINK_ReadMem (0x200009CC, 0x000C Bytes, ...) -- CPU_ReadMem(12 bytes @ 0x200009CC) -- Data:  30 31 32 33 34 35 36 37 38 39 09 00  returns 0x00 (0000ms, 0531ms total)
T13E4 029:494 JLINK_ReadMem (0x200009AC, 0x0020 Bytes, ...) -- CPU_ReadMem(32 bytes @ 0x200009AC) -- Data:  08 08 08 08 09 09 09 09 10 10 10 10 11 11 11 11 ...  returns 0x00 (0001ms, 0532ms total)
T13E4 029:495 JLINK_ReadMem (0x200009A4, 0x0006 Bytes, ...) -- CPU_ReadMem(6 bytes @ 0x200009A4) -- Data:  0F 08 1E 17 3B 0B  returns 0x00 (0001ms, 0533ms total)
T13E4 029:496 JLINK_ReadMem (0x20000984, 0x0020 Bytes, ...) -- CPU_ReadMem(32 bytes @ 0x20000984) -- Data:  00 00 00 00 00 00 00 00 00 00 00 00 00 00 00 00 ...  returns 0x00 (0001ms, 0534ms total)
T13E4 029:503 JLINK_ReadMemU32(0xE0001004, 0x0001 Items, ...) -- CPU_ReadMem(4 bytes @ 0xE0001004) -- Data:  00 F2 62 00  returns 0x01 (0001ms, 0535ms total)
T13E4 029:507 JLINK_ReadMem (0x0800022E, 0x0002 Bytes, ...) -- CPU_ReadMem(64 bytes @ 0x08000200) -- Updating DA cache (64 bytes @ 0x08000200) -- Read from DA cache (2 bytes @ 0x0800022E) -- Data:  82 E1  returns 0x00 (0001ms, 0536ms total)
T13E4 029:508 JLINK_ReadMem (0x08000230, 0x003C Bytes, ...) -- CPU_ReadMem(64 bytes @ 0x08000240) -- Updating DA cache (64 bytes @ 0x08000240) -- Read from DA cache (60 bytes @ 0x08000230) -- Data:  14 21 ED 48 00 F0 D9 FA 04 46 20 21 10 A8 0A F0 ...  returns 0x00 (0001ms, 0537ms total)
T1758 033:329 JLINK_SetBPEx(Addr = 0x08000496, Type = 0xFFFFFFF2)  returns 0x00000005 (0000ms, 0537ms total)
T1758 033:329 JLINK_Go() -- Invalidate MA0 status -- CPU_WriteMem(4 bytes @ 0xE0002008) -- CPU_WriteMem(4 bytes @ 0xE000200C) (0003ms, 0540ms total)
T1758 033:433 JLINK_IsHalted()  returns FALSE (0000ms, 0540ms total)
T1758 033:535 JLINK_IsHalted()  returns FALSE (0000ms, 0540ms total)
T1758 033:636 JLINK_IsHalted()  returns FALSE (0000ms, 0540ms total)
T1758 033:738 JLINK_IsHalted()  returns FALSE (0000ms, 0540ms total)
T1758 033:839 JLINK_ReadMemU32(0xE0001004, 0x0001 Items, ...) -- CPU is running -- CPU_ReadMem(4 bytes @ 0xE0001004) -- Data:  41 A0 5A 01  returns 0x01 (0000ms, 0540ms total)
T1758 033:840 JLINK_IsHalted()  returns FALSE (0000ms, 0540ms total)
T1758 033:941 JLINK_IsHalted()  returns FALSE (0000ms, 0540ms total)
T1758 034:042 JLINK_IsHalted()  returns FALSE (0001ms, 0541ms total)
T1758 034:144 JLINK_IsHalted()  returns FALSE (0000ms, 0540ms total)
T1758 034:245 JLINK_IsHalted()  returns FALSE (0000ms, 0540ms total)
T1758 034:346 JLINK_IsHalted()  returns FALSE (0001ms, 0541ms total)
T1758 034:447 JLINK_ReadMemU32(0xE0001004, 0x0001 Items, ...) -- CPU is running -- CPU_ReadMem(4 bytes @ 0xE0001004) -- Data:  FD A5 83 02  returns 0x01 (0000ms, 0540ms total)
T1758 034:447 JLINK_IsHalted()  returns FALSE (0001ms, 0541ms total)
T1758 034:550 JLINK_IsHalted()  returns FALSE (0000ms, 0540ms total)
T1758 034:651 JLINK_IsHalted()  returns FALSE (0000ms, 0540ms total)
T1758 034:752 JLINK_IsHalted()  returns FALSE (0000ms, 0540ms total)
T1758 034:853 JLINK_IsHalted()  returns FALSE (0000ms, 0540ms total)
T1758 034:954 JLINK_IsHalted()  returns FALSE (0001ms, 0541ms total)
T1758 035:056 JLINK_ReadMemU32(0xE0001004, 0x0001 Items, ...) -- CPU is running -- CPU_ReadMem(4 bytes @ 0xE0001004) -- Data:  96 DF AC 03  returns 0x01 (0000ms, 0540ms total)
T1758 035:058 JLINK_IsHalted()  returns FALSE (0001ms, 0541ms total)
T1758 035:159 JLINK_IsHalted()  returns FALSE (0000ms, 0540ms total)
T1758 035:261 JLINK_IsHalted()  returns FALSE (0000ms, 0540ms total)
T1758 035:362 JLINK_IsHalted()  returns FALSE (0001ms, 0541ms total)
T1758 035:464 JLINK_IsHalted()  returns FALSE (0000ms, 0540ms total)
T1758 035:565 JLINK_IsHalted()  returns FALSE (0000ms, 0540ms total)
T1758 035:666 JLINK_ReadMemU32(0xE0001004, 0x0001 Items, ...) -- CPU is running -- CPU_ReadMem(4 bytes @ 0xE0001004) -- Data:  A2 E7 D6 04  returns 0x01 (0000ms, 0540ms total)
T1758 035:668 JLINK_IsHalted()  returns FALSE (0001ms, 0541ms total)
T1758 035:770 JLINK_IsHalted()  returns FALSE (0000ms, 0540ms total)
T1758 035:871 JLINK_IsHalted()  returns FALSE (0000ms, 0540ms total)
T1758 035:972 JLINK_IsHalted()  returns FALSE (0000ms, 0540ms total)
T1758 036:074 JLINK_IsHalted()  returns FALSE (0000ms, 0540ms total)
T1758 036:175 JLINK_IsHalted()  returns TRUE (0002ms, 0542ms total)
T1758 036:177 JLINK_Halt()  returns 0x00 (0000ms, 0540ms total)
T1758 036:177 JLINK_IsHalted()  returns TRUE (0000ms, 0540ms total)
T1758 036:177 JLINK_IsHalted()  returns TRUE (0000ms, 0540ms total)
T1758 036:177 JLINK_IsHalted()  returns TRUE (0000ms, 0540ms total)
T1758 036:177 JLINK_ReadReg(R15)  returns 0x08000496 (0000ms, 0540ms total)
T1758 036:177 JLINK_ReadReg(XPSR)  returns 0x61000000 (0000ms, 0540ms total)
T1758 036:177 JLINK_ClrBPEx(BPHandle = 0x00000005)  returns 0x00 (0000ms, 0540ms total)
T1758 036:177 JLINK_ReadMemU32(0xE000ED30, 0x0001 Items, ...) -- CPU_ReadMem(4 bytes @ 0xE000ED30) -- Data:  03 00 00 00  returns 0x01 (0001ms, 0541ms total)
T1758 036:178 JLINK_ReadMemU32(0xE0001028, 0x0001 Items, ...) -- CPU_ReadMem(4 bytes @ 0xE0001028) -- Data:  00 00 00 00  returns 0x01 (0001ms, 0542ms total)
T1758 036:179 JLINK_ReadMemU32(0xE0001038, 0x0001 Items, ...) -- CPU_ReadMem(4 bytes @ 0xE0001038) -- Data:  00 02 00 00  returns 0x01 (0000ms, 0542ms total)
T1758 036:179 JLINK_ReadMemU32(0xE0001048, 0x0001 Items, ...) -- CPU_ReadMem(4 bytes @ 0xE0001048) -- Data:  00 00 00 00  returns 0x01 (0001ms, 0543ms total)
T1758 036:180 JLINK_ReadMemU32(0xE0001058, 0x0001 Items, ...) -- CPU_ReadMem(4 bytes @ 0xE0001058) -- Data:  00 00 00 00  returns 0x01 (0001ms, 0544ms total)
T1758 036:181 JLINK_ReadReg(R0)  returns 0x20000984 (0000ms, 0544ms total)
T1758 036:181 JLINK_ReadReg(R1)  returns 0x08000626 (0000ms, 0544ms total)
T1758 036:181 JLINK_ReadReg(R2)  returns 0x20000986 (0000ms, 0544ms total)
T1758 036:181 JLINK_ReadReg(R3)  returns 0x00000000 (0000ms, 0544ms total)
T1758 036:181 JLINK_ReadReg(R4)  returns 0x00000123 (0000ms, 0544ms total)
T1758 036:181 JLINK_ReadReg(R5)  returns 0x000002FA (0000ms, 0544ms total)
T1758 036:181 JLINK_ReadReg(R6)  returns 0x00000000 (0000ms, 0544ms total)
T1758 036:181 JLINK_ReadReg(R7)  returns 0x00000007 (0000ms, 0544ms total)
T1758 036:181 JLINK_ReadReg(R8)  returns 0x08080808 (0000ms, 0544ms total)
T1758 036:181 JLINK_ReadReg(R9)  returns 0x09090909 (0000ms, 0544ms total)
T1758 036:181 JLINK_ReadReg(R10)  returns 0x10101010 (0000ms, 0544ms total)
T1758 036:181 JLINK_ReadReg(R11)  returns 0x11111111 (0000ms, 0544ms total)
T1758 036:181 JLINK_ReadReg(R12)  returns 0x00000000 (0000ms, 0544ms total)
T1758 036:181 JLINK_ReadReg(R13)  returns 0x2000096C (0000ms, 0544ms total)
T1758 036:181 JLINK_ReadReg(R14)  returns 0x08000497 (0000ms, 0544ms total)
T1758 036:181 JLINK_ReadReg(R15)  returns 0x08000496 (0000ms, 0544ms total)
T1758 036:181 JLINK_ReadReg(XPSR)  returns 0x61000000 (0001ms, 0545ms total)
T1758 036:182 JLINK_ReadReg(MSP)  returns 0x20001368 (0000ms, 0545ms total)
T1758 036:182 JLINK_ReadReg(PSP)  returns 0x2000096C (0000ms, 0545ms total)
T1758 036:182 JLINK_ReadReg(CFBP)  returns 0x02000000 (0000ms, 0545ms total)
T13E4 036:183 JLINK_ReadMem (0x200009D8, 0x0002 Bytes, ...) -- CPU_ReadMem(2 bytes @ 0x200009D8) -- Data:  00 00  returns 0x00 (0001ms, 0546ms total)
T13E4 036:184 JLINK_ReadMem (0x00000000, 0x0004 Bytes, ...)
                JLINK_ReadMemHW(0x00000000, 0x0004 Bytes, ...) -- CPU_ReadMem(4 bytes @ 0x00000000) -- Data:  30 2D 00 20  returns 0x00 (0001ms, 0001ms total)
                JLINK_ReadMemHW(0x08000000, 0x0004 Bytes, ...) -- CPU_ReadMem(4 bytes @ 0x08000000) -- Data:  30 2D 00 20  returns 0x00 (0001ms, 0002ms total)
                JLINK_WriteMemHW(0x00000000, 0x0004 Bytes, ...) -- Data:  01 00 01 00 -- CPU_WriteMem(4 bytes @ 0x00000000)  returns 0x04 (0001ms, 0003ms total)
                JLINK_ReadMemHW(0x00000000, 0x0004 Bytes, ...) -- CPU_ReadMem(4 bytes @ 0x00000000) -- Data:  30 2D 00 20  returns 0x00 (0000ms, 0003ms total)
               -- MA0 is in flash -- Unmirror addr 0x00000000 -- CPU_ReadMem(64 bytes @ 0x08000000) -- Updating DA cache (64 bytes @ 0x08000000) -- Read from DA cache (4 bytes @ 0x08000000) -- Data:  30 2D 00 20  returns 0x00 (0005ms, 0551ms total)
T13E4 036:189 JLINK_ReadMem (0x200009CC, 0x000C Bytes, ...) -- CPU_ReadMem(12 bytes @ 0x200009CC) -- Data:  30 31 32 33 34 35 36 37 38 39 09 00  returns 0x00 (0001ms, 0552ms total)
T13E4 036:190 JLINK_ReadMem (0x200009AC, 0x0020 Bytes, ...) -- CPU_ReadMem(32 bytes @ 0x200009AC) -- Data:  53 65 63 3A 33 36 0A 00 00 00 00 00 00 00 00 00 ...  returns 0x00 (0001ms, 0553ms total)
T13E4 036:191 JLINK_ReadMem (0x200009A4, 0x0006 Bytes, ...) -- CPU_ReadMem(6 bytes @ 0x200009A4) -- Data:  0F 08 1E 17 3B 0B  returns 0x00 (0001ms, 0554ms total)
T13E4 036:192 JLINK_ReadMem (0x20000984, 0x0020 Bytes, ...) -- CPU_ReadMem(32 bytes @ 0x20000984) -- Data:  24 00 00 00 00 00 00 00 00 00 00 00 00 00 00 00 ...  returns 0x00 (0001ms, 0555ms total)
T13E4 036:193 JLINK_ReadMemU32(0xE0001004, 0x0001 Items, ...) -- CPU_ReadMem(4 bytes @ 0xE0001004) -- Data:  B7 57 BF 05  returns 0x01 (0000ms, 0555ms total)
T13E4 036:196 JLINK_ReadMem (0x08000496, 0x0002 Bytes, ...) -- CPU_ReadMem(64 bytes @ 0x08000480) -- Updating DA cache (64 bytes @ 0x08000480) -- Read from DA cache (2 bytes @ 0x08000496) -- Data:  06 A8  returns 0x00 (0001ms, 0556ms total)
T13E4 036:197 JLINK_ReadMem (0x08000498, 0x003C Bytes, ...) -- CPU_ReadMem(64 bytes @ 0x080004C0) -- Updating DA cache (64 bytes @ 0x080004C0) -- Read from DA cache (60 bytes @ 0x08000498) -- Data:  01 F0 C7 FC 30 46 71 1C CE B2 05 21 90 FB F1 F2 ...  returns 0x00 (0002ms, 0558ms total)
T1758 044:161 JLINK_Step() -- Read from DA cache (2 bytes @ 0x08000496) -- Simulated  returns 0x00 (0001ms, 0559ms total)
T1758 044:162 JLINK_ReadReg(R15)  returns 0x08000498 (0000ms, 0559ms total)
T1758 044:162 JLINK_ReadReg(XPSR)  returns 0x61000000 (0000ms, 0559ms total)
T1758 044:162 JLINK_Step() -- Read from DA cache (2 bytes @ 0x08000498) -- Read from DA cache (2 bytes @ 0x0800049A) -- Simulated  returns 0x00 (0001ms, 0560ms total)
T1758 044:163 JLINK_ReadReg(R15)  returns 0x08001E2A (0000ms, 0560ms total)
T1758 044:163 JLINK_ReadReg(XPSR)  returns 0x61000000 (0000ms, 0560ms total)
T1758 044:163 JLINK_ReadReg(R0)  returns 0x20000984 (0000ms, 0560ms total)
T1758 044:163 JLINK_ReadReg(R1)  returns 0x08000626 (0000ms, 0560ms total)
T1758 044:163 JLINK_ReadReg(R2)  returns 0x20000986 (0000ms, 0560ms total)
T1758 044:163 JLINK_ReadReg(R3)  returns 0x00000000 (0000ms, 0560ms total)
T1758 044:163 JLINK_ReadReg(R4)  returns 0x00000123 (0000ms, 0560ms total)
T1758 044:163 JLINK_ReadReg(R5)  returns 0x000002FA (0000ms, 0560ms total)
T1758 044:163 JLINK_ReadReg(R6)  returns 0x00000000 (0000ms, 0560ms total)
T1758 044:163 JLINK_ReadReg(R7)  returns 0x00000007 (0000ms, 0560ms total)
T1758 044:163 JLINK_ReadReg(R8)  returns 0x08080808 (0000ms, 0560ms total)
T1758 044:163 JLINK_ReadReg(R9)  returns 0x09090909 (0000ms, 0560ms total)
T1758 044:163 JLINK_ReadReg(R10)  returns 0x10101010 (0000ms, 0560ms total)
T1758 044:163 JLINK_ReadReg(R11)  returns 0x11111111 (0000ms, 0560ms total)
T1758 044:163 JLINK_ReadReg(R12)  returns 0x00000000 (0000ms, 0560ms total)
T1758 044:163 JLINK_ReadReg(R13)  returns 0x2000096C (0000ms, 0560ms total)
T1758 044:163 JLINK_ReadReg(R14)  returns 0x0800049D (0000ms, 0560ms total)
T1758 044:163 JLINK_ReadReg(R15)  returns 0x08001E2A (0000ms, 0560ms total)
T1758 044:163 JLINK_ReadReg(XPSR)  returns 0x61000000 (0000ms, 0560ms total)
T1758 044:163 JLINK_ReadReg(MSP)  returns 0x20001368 (0000ms, 0560ms total)
T1758 044:163 JLINK_ReadReg(PSP)  returns 0x2000096C (0000ms, 0560ms total)
T1758 044:163 JLINK_ReadReg(CFBP)  returns 0x02000000 (0000ms, 0560ms total)
T13E4 044:166 JLINK_ReadMem (0x00000000, 0x0004 Bytes, ...) -- Unmirror addr 0x00000000 -- Read from DA cache (4 bytes @ 0x08000000) -- Data:  30 2D 00 20  returns 0x00 (0000ms, 0560ms total)
T13E4 044:171 JLINK_ReadMem (0x200009D8, 0x0002 Bytes, ...) -- CPU_ReadMem(2 bytes @ 0x200009D8) -- Data:  00 00  returns 0x00 (0001ms, 0561ms total)
T13E4 044:172 JLINK_ReadMem (0x200009CC, 0x000C Bytes, ...) -- CPU_ReadMem(12 bytes @ 0x200009CC) -- Data:  30 31 32 33 34 35 36 37 38 39 09 00  returns 0x00 (0001ms, 0562ms total)
T13E4 044:173 JLINK_ReadMem (0x200009AC, 0x0020 Bytes, ...) -- CPU_ReadMem(32 bytes @ 0x200009AC) -- Data:  53 65 63 3A 33 36 0A 00 00 00 00 00 00 00 00 00 ...  returns 0x00 (0001ms, 0563ms total)
T13E4 044:174 JLINK_ReadMem (0x200009A4, 0x0006 Bytes, ...) -- CPU_ReadMem(6 bytes @ 0x200009A4) -- Data:  0F 08 1E 17 3B 0B  returns 0x00 (0001ms, 0564ms total)
T13E4 044:175 JLINK_ReadMem (0x20000984, 0x0020 Bytes, ...) -- CPU_ReadMem(32 bytes @ 0x20000984) -- Data:  24 00 00 00 00 00 00 00 00 00 00 00 00 00 00 00 ...  returns 0x00 (0001ms, 0565ms total)
T13E4 044:176 JLINK_ReadMemU32(0xE0001004, 0x0001 Items, ...) -- Data:  B7 57 BF 05  returns 0x01 (0000ms, 0565ms total)
T13E4 044:179 JLINK_ReadMem (0x08001E2A, 0x0002 Bytes, ...) -- CPU_ReadMem(64 bytes @ 0x08001E00) -- Updating DA cache (64 bytes @ 0x08001E00) -- Read from DA cache (2 bytes @ 0x08001E2A) -- Data:  70 B5  returns 0x00 (0002ms, 0567ms total)
T13E4 044:181 JLINK_ReadMem (0x08001E2C, 0x003C Bytes, ...) -- CPU_ReadMem(64 bytes @ 0x08001E40) -- Updating DA cache (64 bytes @ 0x08001E40) -- Read from DA cache (60 bytes @ 0x08001E2C) -- Data:  05 46 00 24 28 46 FF F7 B2 FF 00 BF 4F F4 00 51 ...  returns 0x00 (0001ms, 0568ms total)
T1758 046:274 JLINK_Step() -- Read from DA cache (2 bytes @ 0x08001E2A) -- CPU_WriteMem(16 bytes @ 0x2000095C) -- Simulated  returns 0x00 (0002ms, 0570ms total)
T1758 046:276 JLINK_ReadReg(R15)  returns 0x08001E2C (0000ms, 0570ms total)
T1758 046:276 JLINK_ReadReg(XPSR)  returns 0x61000000 (0000ms, 0570ms total)
T1758 046:276 JLINK_Step() -- CPU_ReadMem(2 bytes @ 0x08001E2C) -- Simulated  returns 0x00 (0000ms, 0570ms total)
T1758 046:276 JLINK_ReadReg(R15)  returns 0x08001E2E (0001ms, 0571ms total)
T1758 046:277 JLINK_ReadReg(XPSR)  returns 0x61000000 (0000ms, 0571ms total)
T1758 046:277 JLINK_ReadReg(R0)  returns 0x20000984 (0000ms, 0571ms total)
T1758 046:277 JLINK_ReadReg(R1)  returns 0x08000626 (0000ms, 0571ms total)
T1758 046:277 JLINK_ReadReg(R2)  returns 0x20000986 (0000ms, 0571ms total)
T1758 046:277 JLINK_ReadReg(R3)  returns 0x00000000 (0000ms, 0571ms total)
T1758 046:277 JLINK_ReadReg(R4)  returns 0x00000123 (0000ms, 0571ms total)
T1758 046:277 JLINK_ReadReg(R5)  returns 0x20000984 (0000ms, 0571ms total)
T1758 046:277 JLINK_ReadReg(R6)  returns 0x00000000 (0000ms, 0571ms total)
T1758 046:277 JLINK_ReadReg(R7)  returns 0x00000007 (0000ms, 0571ms total)
T1758 046:277 JLINK_ReadReg(R8)  returns 0x08080808 (0000ms, 0571ms total)
T1758 046:277 JLINK_ReadReg(R9)  returns 0x09090909 (0000ms, 0571ms total)
T1758 046:277 JLINK_ReadReg(R10)  returns 0x10101010 (0000ms, 0571ms total)
T1758 046:277 JLINK_ReadReg(R11)  returns 0x11111111 (0000ms, 0571ms total)
T1758 046:277 JLINK_ReadReg(R12)  returns 0x00000000 (0000ms, 0571ms total)
T1758 046:277 JLINK_ReadReg(R13)  returns 0x2000095C (0000ms, 0571ms total)
T1758 046:277 JLINK_ReadReg(R14)  returns 0x0800049D (0000ms, 0571ms total)
T1758 046:277 JLINK_ReadReg(R15)  returns 0x08001E2E (0000ms, 0571ms total)
T1758 046:277 JLINK_ReadReg(XPSR)  returns 0x61000000 (0000ms, 0571ms total)
T1758 046:277 JLINK_ReadReg(MSP)  returns 0x20001368 (0000ms, 0571ms total)
T1758 046:277 JLINK_ReadReg(PSP)  returns 0x2000095C (0000ms, 0571ms total)
T1758 046:277 JLINK_ReadReg(CFBP)  returns 0x02000000 (0000ms, 0571ms total)
T13E4 046:280 JLINK_ReadMem (0x20000968, 0x0004 Bytes, ...) -- CPU_ReadMem(4 bytes @ 0x20000968) -- Data:  9D 04 00 08  returns 0x00 (0001ms, 0572ms total)
T13E4 046:281 JLINK_ReadMem (0x2000095C, 0x0004 Bytes, ...) -- CPU_ReadMem(4 bytes @ 0x2000095C) -- Data:  23 01 00 00  returns 0x00 (0001ms, 0573ms total)
T13E4 046:282 JLINK_ReadMem (0x20000960, 0x0004 Bytes, ...) -- CPU_ReadMem(4 bytes @ 0x20000960) -- Data:  FA 02 00 00  returns 0x00 (0001ms, 0574ms total)
T13E4 046:283 JLINK_ReadMem (0x20000964, 0x0004 Bytes, ...) -- CPU_ReadMem(4 bytes @ 0x20000964) -- Data:  00 00 00 00  returns 0x00 (0000ms, 0574ms total)
T13E4 046:284 JLINK_ReadMem (0x20000984, 0x0020 Bytes, ...) -- CPU_ReadMem(32 bytes @ 0x20000984) -- Data:  24 00 00 00 00 00 00 00 00 00 00 00 00 00 00 00 ...  returns 0x00 (0001ms, 0575ms total)
T13E4 046:285 JLINK_ReadMem (0x00000000, 0x0001 Bytes, ...) -- Unmirror addr 0x00000000 -- CPU_ReadMem(1 bytes @ 0x08000000) -- Data:  30  returns 0x00 (0001ms, 0576ms total)
T13E4 046:286 JLINK_ReadMem (0x200009D8, 0x0002 Bytes, ...) -- CPU_ReadMem(2 bytes @ 0x200009D8) -- Data:  00 00  returns 0x00 (0001ms, 0577ms total)
T13E4 046:287 JLINK_ReadMem (0x00000000, 0x0004 Bytes, ...) -- Unmirror addr 0x00000000 -- CPU_ReadMem(4 bytes @ 0x08000000) -- Data:  30 2D 00 20  returns 0x00 (0001ms, 0578ms total)
T13E4 046:288 JLINK_ReadMem (0x200009CC, 0x000C Bytes, ...) -- CPU_ReadMem(12 bytes @ 0x200009CC) -- Data:  30 31 32 33 34 35 36 37 38 39 09 00  returns 0x00 (0000ms, 0578ms total)
T13E4 046:288 JLINK_ReadMem (0x200009AC, 0x0020 Bytes, ...) -- CPU_ReadMem(32 bytes @ 0x200009AC) -- Data:  53 65 63 3A 33 36 0A 00 00 00 00 00 00 00 00 00 ...  returns 0x00 (0001ms, 0579ms total)
T13E4 046:289 JLINK_ReadMem (0x200009A4, 0x0006 Bytes, ...) -- CPU_ReadMem(6 bytes @ 0x200009A4) -- Data:  0F 08 1E 17 3B 0B  returns 0x00 (0001ms, 0580ms total)
T13E4 046:290 JLINK_ReadMemU32(0xE0001004, 0x0001 Items, ...) -- Data:  B7 57 BF 05  returns 0x01 (0000ms, 0580ms total)
T13E4 046:293 JLINK_ReadMem (0x08001E2E, 0x0002 Bytes, ...) -- CPU_ReadMem(2 bytes @ 0x08001E2E) -- Data:  00 24  returns 0x00 (0001ms, 0581ms total)
T13E4 046:294 JLINK_ReadMem (0x08001E30, 0x003C Bytes, ...) -- CPU_ReadMem(60 bytes @ 0x08001E30) -- Data:  28 46 FF F7 B2 FF 00 BF 4F F4 00 51 34 48 06 F0 ...  returns 0x00 (0001ms, 0582ms total)
T1758 047:225 JLINK_Step() -- CPU_ReadMem(2 bytes @ 0x08001E2E) -- Simulated  returns 0x00 (0002ms, 0584ms total)
T1758 047:227 JLINK_ReadReg(R15)  returns 0x08001E30 (0000ms, 0584ms total)
T1758 047:227 JLINK_ReadReg(XPSR)  returns 0x61000000 (0000ms, 0584ms total)
T1758 047:227 JLINK_ReadReg(R0)  returns 0x20000984 (0000ms, 0584ms total)
T1758 047:227 JLINK_ReadReg(R1)  returns 0x08000626 (0000ms, 0584ms total)
T1758 047:227 JLINK_ReadReg(R2)  returns 0x20000986 (0000ms, 0584ms total)
T1758 047:227 JLINK_ReadReg(R3)  returns 0x00000000 (0000ms, 0584ms total)
T1758 047:227 JLINK_ReadReg(R4)  returns 0x00000000 (0000ms, 0584ms total)
T1758 047:227 JLINK_ReadReg(R5)  returns 0x20000984 (0000ms, 0584ms total)
T1758 047:227 JLINK_ReadReg(R6)  returns 0x00000000 (0000ms, 0584ms total)
T1758 047:227 JLINK_ReadReg(R7)  returns 0x00000007 (0000ms, 0584ms total)
T1758 047:228 JLINK_ReadReg(R8)  returns 0x08080808 (0000ms, 0585ms total)
T1758 047:228 JLINK_ReadReg(R9)  returns 0x09090909 (0000ms, 0585ms total)
T1758 047:228 JLINK_ReadReg(R10)  returns 0x10101010 (0000ms, 0585ms total)
T1758 047:228 JLINK_ReadReg(R11)  returns 0x11111111 (0000ms, 0585ms total)
T1758 047:228 JLINK_ReadReg(R12)  returns 0x00000000 (0000ms, 0585ms total)
T1758 047:228 JLINK_ReadReg(R13)  returns 0x2000095C (0000ms, 0585ms total)
T1758 047:228 JLINK_ReadReg(R14)  returns 0x0800049D (0000ms, 0585ms total)
T1758 047:228 JLINK_ReadReg(R15)  returns 0x08001E30 (0000ms, 0585ms total)
T1758 047:228 JLINK_ReadReg(XPSR)  returns 0x61000000 (0000ms, 0585ms total)
T1758 047:228 JLINK_ReadReg(MSP)  returns 0x20001368 (0000ms, 0585ms total)
T1758 047:228 JLINK_ReadReg(PSP)  returns 0x2000095C (0000ms, 0585ms total)
T1758 047:228 JLINK_ReadReg(CFBP)  returns 0x02000000 (0000ms, 0585ms total)
T13E4 047:230 JLINK_ReadMem (0x20000968, 0x0004 Bytes, ...) -- CPU_ReadMem(4 bytes @ 0x20000968) -- Data:  9D 04 00 08  returns 0x00 (0001ms, 0586ms total)
T13E4 047:231 JLINK_ReadMem (0x2000095C, 0x0004 Bytes, ...) -- CPU_ReadMem(4 bytes @ 0x2000095C) -- Data:  23 01 00 00  returns 0x00 (0001ms, 0587ms total)
T13E4 047:232 JLINK_ReadMem (0x20000960, 0x0004 Bytes, ...) -- CPU_ReadMem(4 bytes @ 0x20000960) -- Data:  FA 02 00 00  returns 0x00 (0000ms, 0587ms total)
T13E4 047:232 JLINK_ReadMem (0x20000964, 0x0004 Bytes, ...) -- CPU_ReadMem(4 bytes @ 0x20000964) -- Data:  00 00 00 00  returns 0x00 (0001ms, 0588ms total)
T13E4 047:233 JLINK_ReadMem (0x20000984, 0x0020 Bytes, ...) -- CPU_ReadMem(32 bytes @ 0x20000984) -- Data:  24 00 00 00 00 00 00 00 00 00 00 00 00 00 00 00 ...  returns 0x00 (0001ms, 0589ms total)
T13E4 047:236 JLINK_ReadMem (0x200009D8, 0x0002 Bytes, ...) -- CPU_ReadMem(2 bytes @ 0x200009D8) -- Data:  00 00  returns 0x00 (0001ms, 0590ms total)
T13E4 047:237 JLINK_ReadMem (0x00000000, 0x0004 Bytes, ...) -- Unmirror addr 0x00000000 -- CPU_ReadMem(4 bytes @ 0x08000000) -- Data:  30 2D 00 20  returns 0x00 (0001ms, 0591ms total)
T13E4 047:238 JLINK_ReadMem (0x200009CC, 0x000C Bytes, ...) -- CPU_ReadMem(12 bytes @ 0x200009CC) -- Data:  30 31 32 33 34 35 36 37 38 39 09 00  returns 0x00 (0000ms, 0591ms total)
T13E4 047:238 JLINK_ReadMem (0x200009AC, 0x0020 Bytes, ...) -- CPU_ReadMem(32 bytes @ 0x200009AC) -- Data:  53 65 63 3A 33 36 0A 00 00 00 00 00 00 00 00 00 ...  returns 0x00 (0001ms, 0592ms total)
T13E4 047:239 JLINK_ReadMem (0x200009A4, 0x0006 Bytes, ...) -- CPU_ReadMem(6 bytes @ 0x200009A4) -- Data:  0F 08 1E 17 3B 0B  returns 0x00 (0001ms, 0593ms total)
T13E4 047:240 JLINK_ReadMemU32(0xE0001004, 0x0001 Items, ...) -- Data:  B7 57 BF 05  returns 0x01 (0000ms, 0593ms total)
T1758 047:913 JLINK_ReadMem (0x08001E30, 0x003C Bytes, ...) -- CPU_ReadMem(60 bytes @ 0x08001E30) -- Data:  28 46 FF F7 B2 FF 00 BF 4F F4 00 51 34 48 06 F0 ...  returns 0x00 (0002ms, 0595ms total)
T1758 047:915 JLINK_Step() -- CPU_ReadMem(2 bytes @ 0x08001E30) -- Simulated  returns 0x00 (0002ms, 0597ms total)
T1758 047:917 JLINK_ReadReg(R15)  returns 0x08001E32 (0000ms, 0597ms total)
T1758 047:917 JLINK_ReadReg(XPSR)  returns 0x61000000 (0000ms, 0597ms total)
T1758 047:917 JLINK_SetBPEx(Addr = 0x08001E36, Type = 0xFFFFFFF2)  returns 0x00000006 (0000ms, 0597ms total)
T1758 047:917 JLINK_SetBPEx(Addr = 0x08000496, Type = 0xFFFFFFF2)  returns 0x00000007 (0000ms, 0597ms total)
T1758 047:917 JLINK_Go() -- Invalidate MA0 status -- CPU_WriteMem(4 bytes @ 0xE0002008) -- CPU_WriteMem(4 bytes @ 0xE000200C) (0003ms, 0600ms total)
T1758 048:022 JLINK_IsHalted()  returns TRUE (0003ms, 0603ms total)
T1758 048:025 JLINK_Halt()  returns 0x00 (0000ms, 0600ms total)
T1758 048:025 JLINK_IsHalted()  returns TRUE (0000ms, 0600ms total)
T1758 048:025 JLINK_IsHalted()  returns TRUE (0000ms, 0600ms total)
T1758 048:025 JLINK_IsHalted()  returns TRUE (0000ms, 0600ms total)
T1758 048:025 JLINK_ReadReg(R15)  returns 0x08001E36 (0000ms, 0600ms total)
T1758 048:025 JLINK_ReadReg(XPSR)  returns 0x21000000 (0000ms, 0600ms total)
T1758 048:025 JLINK_ClrBPEx(BPHandle = 0x00000006)  returns 0x00 (0000ms, 0600ms total)
T1758 048:025 JLINK_ClrBPEx(BPHandle = 0x00000007)  returns 0x00 (0000ms, 0600ms total)
T1758 048:025 JLINK_ReadMemU32(0xE000ED30, 0x0001 Items, ...) -- CPU_ReadMem(4 bytes @ 0xE000ED30) -- Data:  03 00 00 00  returns 0x01 (0001ms, 0601ms total)
T1758 048:026 JLINK_ReadMemU32(0xE0001028, 0x0001 Items, ...) -- CPU_ReadMem(4 bytes @ 0xE0001028) -- Data:  00 00 00 00  returns 0x01 (0001ms, 0602ms total)
T1758 048:027 JLINK_ReadMemU32(0xE0001038, 0x0001 Items, ...) -- CPU_ReadMem(4 bytes @ 0xE0001038) -- Data:  00 02 00 00  returns 0x01 (0001ms, 0603ms total)
T1758 048:028 JLINK_ReadMemU32(0xE0001048, 0x0001 Items, ...) -- CPU_ReadMem(4 bytes @ 0xE0001048) -- Data:  00 00 00 00  returns 0x01 (0000ms, 0603ms total)
T1758 048:028 JLINK_ReadMemU32(0xE0001058, 0x0001 Items, ...) -- CPU_ReadMem(4 bytes @ 0xE0001058) -- Data:  00 00 00 00  returns 0x01 (0001ms, 0604ms total)
T1758 048:029 JLINK_ReadReg(R0)  returns 0x00000011 (0000ms, 0604ms total)
T1758 048:029 JLINK_ReadReg(R1)  returns 0x40000800 (0000ms, 0604ms total)
T1758 048:029 JLINK_ReadReg(R2)  returns 0x00000011 (0000ms, 0604ms total)
T1758 048:029 JLINK_ReadReg(R3)  returns 0x00000003 (0000ms, 0604ms total)
T1758 048:029 JLINK_ReadReg(R4)  returns 0x00000000 (0000ms, 0604ms total)
T1758 048:029 JLINK_ReadReg(R5)  returns 0x20000984 (0000ms, 0604ms total)
T1758 048:029 JLINK_ReadReg(R6)  returns 0x00000000 (0000ms, 0604ms total)
T1758 048:029 JLINK_ReadReg(R7)  returns 0x00000007 (0000ms, 0604ms total)
T1758 048:029 JLINK_ReadReg(R8)  returns 0x08080808 (0000ms, 0604ms total)
T1758 048:029 JLINK_ReadReg(R9)  returns 0x09090909 (0000ms, 0604ms total)
T1758 048:029 JLINK_ReadReg(R10)  returns 0x10101010 (0000ms, 0604ms total)
T1758 048:029 JLINK_ReadReg(R11)  returns 0x11111111 (0000ms, 0604ms total)
T1758 048:029 JLINK_ReadReg(R12)  returns 0x00000000 (0000ms, 0604ms total)
T1758 048:029 JLINK_ReadReg(R13)  returns 0x2000095C (0000ms, 0604ms total)
T1758 048:029 JLINK_ReadReg(R14)  returns 0x08001681 (0000ms, 0604ms total)
T1758 048:029 JLINK_ReadReg(R15)  returns 0x08001E36 (0000ms, 0604ms total)
T1758 048:029 JLINK_ReadReg(XPSR)  returns 0x21000000 (0001ms, 0605ms total)
T1758 048:030 JLINK_ReadReg(MSP)  returns 0x20001368 (0000ms, 0605ms total)
T1758 048:030 JLINK_ReadReg(PSP)  returns 0x2000095C (0000ms, 0605ms total)
T1758 048:030 JLINK_ReadReg(CFBP)  returns 0x02000000 (0000ms, 0605ms total)
T13E4 048:030 JLINK_ReadMem (0x20000968, 0x0004 Bytes, ...) -- CPU_ReadMem(4 bytes @ 0x20000968) -- Data:  9D 04 00 08  returns 0x00 (0001ms, 0606ms total)
T13E4 048:031 JLINK_ReadMem (0x2000095C, 0x0004 Bytes, ...) -- CPU_ReadMem(4 bytes @ 0x2000095C) -- Data:  23 01 00 00  returns 0x00 (0000ms, 0606ms total)
T13E4 048:031 JLINK_ReadMem (0x20000960, 0x0004 Bytes, ...) -- CPU_ReadMem(4 bytes @ 0x20000960) -- Data:  FA 02 00 00  returns 0x00 (0001ms, 0607ms total)
T13E4 048:032 JLINK_ReadMem (0x20000964, 0x0004 Bytes, ...) -- CPU_ReadMem(4 bytes @ 0x20000964) -- Data:  00 00 00 00  returns 0x00 (0001ms, 0608ms total)
T13E4 048:033 JLINK_ReadMem (0x20000A58, 0x0004 Bytes, ...) -- CPU_ReadMem(4 bytes @ 0x20000A58) -- Data:  00 00 00 00  returns 0x00 (0001ms, 0609ms total)
T13E4 048:038 JLINK_ReadMem (0x20000984, 0x0020 Bytes, ...) -- CPU_ReadMem(32 bytes @ 0x20000984) -- Data:  24 00 00 00 00 00 00 00 00 00 00 00 00 00 00 00 ...  returns 0x00 (0001ms, 0610ms total)
T13E4 048:043 JLINK_ReadMem (0x20000A48, 0x0002 Bytes, ...) -- CPU_ReadMem(2 bytes @ 0x20000A48) -- Data:  40 00  returns 0x00 (0001ms, 0611ms total)
T13E4 048:044 JLINK_ReadMem (0x00000000, 0x0004 Bytes, ...)
                JLINK_ReadMemHW(0x00000000, 0x0004 Bytes, ...) -- CPU_ReadMem(4 bytes @ 0x00000000) -- Data:  30 2D 00 20  returns 0x00 (0000ms, 0000ms total)
                JLINK_ReadMemHW(0x08000000, 0x0004 Bytes, ...) -- CPU_ReadMem(4 bytes @ 0x08000000) -- Data:  30 2D 00 20  returns 0x00 (0001ms, 0001ms total)
                JLINK_WriteMemHW(0x00000000, 0x0004 Bytes, ...) -- Data:  01 00 01 00 -- CPU_WriteMem(4 bytes @ 0x00000000)  returns 0x04 (0001ms, 0002ms total)
                JLINK_ReadMemHW(0x00000000, 0x0004 Bytes, ...) -- CPU_ReadMem(4 bytes @ 0x00000000) -- Data:  30 2D 00 20  returns 0x00 (0001ms, 0003ms total)
               -- MA0 is in flash -- Unmirror addr 0x00000000 -- CPU_ReadMem(64 bytes @ 0x08000000) -- Updating DA cache (64 bytes @ 0x08000000) -- Read from DA cache (4 bytes @ 0x08000000) -- Data:  30 2D 00 20  returns 0x00 (0004ms, 0615ms total)
T13E4 048:048 JLINK_ReadMem (0x20000A3C, 0x000C Bytes, ...) -- CPU_ReadMem(12 bytes @ 0x20000A3C) -- Data:  00 00 00 00 00 00 00 00 00 00 00 00  returns 0x00 (0001ms, 0616ms total)
T13E4 048:049 JLINK_ReadMem (0x20000A1C, 0x0020 Bytes, ...) -- CPU_ReadMem(32 bytes @ 0x20000A1C) -- Data:  00 00 00 00 00 00 00 00 00 00 00 80 00 00 00 00 ...  returns 0x00 (0001ms, 0617ms total)
T13E4 048:050 JLINK_ReadMem (0x20000A14, 0x0006 Bytes, ...) -- CPU_ReadMem(6 bytes @ 0x20000A14) -- Data:  00 01 00 00 03 00  returns 0x00 (0001ms, 0618ms total)
T13E4 048:051 JLINK_ReadMem (0x200009F4, 0x0020 Bytes, ...) -- CPU_ReadMem(32 bytes @ 0x200009F4) -- Data:  00 00 00 00 00 00 00 00 94 07 00 08 94 0A 00 20 ...  returns 0x00 (0001ms, 0619ms total)
T13E4 048:052 JLINK_ReadMemU32(0xE0001004, 0x0001 Items, ...) -- CPU_ReadMem(4 bytes @ 0xE0001004) -- Data:  B1 87 BF 05  returns 0x01 (0001ms, 0620ms total)
T13E4 048:056 JLINK_ReadMem (0x08001E36, 0x0002 Bytes, ...) -- CPU_ReadMem(64 bytes @ 0x08001E00) -- Updating DA cache (64 bytes @ 0x08001E00) -- Read from DA cache (2 bytes @ 0x08001E36) -- Data:  00 BF  returns 0x00 (0001ms, 0621ms total)
T13E4 048:057 JLINK_ReadMem (0x08001E38, 0x003C Bytes, ...) -- CPU_ReadMem(64 bytes @ 0x08001E40) -- Updating DA cache (64 bytes @ 0x08001E40) -- Read from DA cache (60 bytes @ 0x08001E38) -- Data:  4F F4 00 51 34 48 06 F0 B7 FA 00 28 F8 D1 4F F4 ...  returns 0x00 (0002ms, 0623ms total)
T1758 048:938 JLINK_Step() -- Read from DA cache (2 bytes @ 0x08001E36) -- Simulated  returns 0x00 (0001ms, 0624ms total)
T1758 048:939 JLINK_ReadReg(R15)  returns 0x08001E38 (0000ms, 0624ms total)
T1758 048:939 JLINK_ReadReg(XPSR)  returns 0x21000000 (0000ms, 0624ms total)
T1758 048:939 JLINK_ReadReg(R0)  returns 0x00000011 (0000ms, 0624ms total)
T1758 048:939 JLINK_ReadReg(R1)  returns 0x40000800 (0000ms, 0624ms total)
T1758 048:939 JLINK_ReadReg(R2)  returns 0x00000011 (0000ms, 0624ms total)
T1758 048:940 JLINK_ReadReg(R3)  returns 0x00000003 (0000ms, 0624ms total)
